
**** 05/03/17 03:28:26 ****** PSpice Lite (October 2012) ****** ID# 10813 ****

 ** Profile: "SCHEMATIC1-BASIC"  [ C:\Users\xdsarkar\Desktop\MemristorSimulations\imply nor-pspicefiles\schematic1\basic.sim ] 


 ****     CIRCUIT DESCRIPTION


******************************************************************************




** Creating circuit file "BASIC.cir" 
** WARNING: THIS AUTOMATICALLY GENERATED FILE MAY BE OVERWRITTEN BY SUBSEQUENT SIMULATIONS

*Libraries: 
* Profile Libraries :
* Local Libraries :
.LIB "C:/OrCAD/OrCAD_16.6_Lite/tools/capture/library/pspice/memristor.lib" 
* From [PSPICE NETLIST] section of C:\Users\xdsarkar\AppData\Roaming\SPB_16.6\cdssetup\OrCAD_PSpice/16.6.0/PSpice.ini file:
.lib "nomd.lib" 

*Analysis directives: 
.TRAN  0 1000ns 0 1u 
.OPTIONS ADVCONV
.PROBE64 V(alias(*)) I(alias(*)) W(alias(*)) D(alias(*)) NOISE(alias(*)) 
.INC "..\SCHEMATIC1.net" 



**** INCLUDING SCHEMATIC1.net ****
* source IMPLY NOR
X_M1         N00124 N00136 N00547 MEMRISTOR
X_M2         N00128 N00128 N00433 MEMRISTOR
X_M3         N00132 N00142 N00236 MEMRISTOR
R_R1         0 N00128  5k TC=0,0 
R_R2         N00236 N00323  1G TC=0,0 
V_V1         N00323 0 0.5Vdc
V_V2         N00473 0 0.5Vdc
R_R3         N00433 N00473  1G TC=0,0 
V_V3         N00587 0 0.5Vdc
R_R4         N00547 N00587  1G TC=0,0 
V_V4         N00124 0 2..5Vdc
V_V5         N00128 0 2.5Vdc
V_V6         N00132 0 1Vdc
R_R5         0 N00142  5k TC=0,0 
R_R6         0 N00136  5k TC=0,0 
R_R7         N00128 N00142  0.0001k TC=0,0 
R_R8         N00136 N00128  0.0001k TC=0,0 

**** RESUMING BASIC.cir ****
.END

Starting pseudo-transient algorithm.

**** 05/03/17 03:28:26 ****** PSpice Lite (October 2012) ****** ID# 10813 ****

 ** Profile: "SCHEMATIC1-BASIC"  [ C:\Users\xdsarkar\Desktop\MemristorSimulations\imply nor-pspicefiles\schematic1\basic.sim ] 


 ****     INITIAL TRANSIENT SOLUTION       TEMPERATURE =   27.000 DEG C


******************************************************************************



 NODE   VOLTAGE     NODE   VOLTAGE     NODE   VOLTAGE     NODE   VOLTAGE


(N00124)    2.0000 (N00128)    2.5000 (N00132)    1.0000 (N00136)    2.4999     

(N00142)    2.4998 (N00236)    1.0000 (N00323)     .5000 (N00433)     .0098     

(N00473)     .5000 (N00547)    1.0000 (N00587)     .5000 (X_M1.4)    2.4950     

(X_M1.8)    -.4950 (X_M1.9)    2.4950 (X_M2.4)    2.5000 (X_M2.8)    0.0000     

(X_M2.9)    2.5000 (X_M3.4)    2.4850 (X_M3.8)   -1.4850 (X_M3.9)    2.4850     

(X_M1.10)    1.0000                   (X_M2.10)     .0098                       

(X_M3.10)    1.0000                   




    VOLTAGE SOURCE CURRENTS
    NAME         CURRENT

    V_V1         5.000E-10
    V_V2        -4.902E-10
    V_V3         5.000E-10
    V_V4         4.950E-04
    V_V5        -3.480E-03
    V_V6         1.485E-03
    X_M1.Vsense  -4.950E-04
    X_M2.Vsense   0.000E+00
    X_M3.Vsense  -1.485E-03

    TOTAL POWER DISSIPATION   6.22E-03  WATTS



          JOB CONCLUDED

**** 05/03/17 03:28:26 ****** PSpice Lite (October 2012) ****** ID# 10813 ****

 ** Profile: "SCHEMATIC1-BASIC"  [ C:\Users\xdsarkar\Desktop\MemristorSimulations\imply nor-pspicefiles\schematic1\basic.sim ] 


 ****     JOB STATISTICS SUMMARY


******************************************************************************



  Total job time (using Solver 1)   =        4.59
