
**** 05/03/17 02:36:19 ****** PSpice Lite (October 2012) ****** ID# 10813 ****

 ** Profile: "SCHEMATIC1-basic"  [ C:\Users\xdsarkar\Desktop\MemristorSimulations\logic gates-pspicefiles\schematic1\basic.sim ] 


 ****     CIRCUIT DESCRIPTION


******************************************************************************




** Creating circuit file "basic.cir" 
** WARNING: THIS AUTOMATICALLY GENERATED FILE MAY BE OVERWRITTEN BY SUBSEQUENT SIMULATIONS

*Libraries: 
* Profile Libraries :
* Local Libraries :
.LIB "C:/OrCAD/OrCAD_16.6_Lite/tools/capture/library/pspice/memristor.lib" 
* From [PSPICE NETLIST] section of C:\Users\xdsarkar\AppData\Roaming\SPB_16.6\cdssetup\OrCAD_PSpice/16.6.0/PSpice.ini file:
.lib "nomd.lib" 

*Analysis directives: 
.TRAN  0 100m 0 1u 
.OPTIONS ADVCONV
.PROBE64 V(alias(*)) I(alias(*)) W(alias(*)) D(alias(*)) NOISE(alias(*)) 
.INC "..\SCHEMATIC1.net" 



**** INCLUDING SCHEMATIC1.net ****
* source LOGIC GATES
X_M1         INPUT N00102 N05933 MEMRISTOR
X_M2         N00102 N00102 N05941 MEMRISTOR
X_M3         N00102 OUTPUT OUT1 MEMRISTOR
R_R3         OUT1 N00357  1G TC=0,0 
V_V3         N00357 0 0.5Vdc
R_R4         OUTPUT 0  1k TC=0,0 
V_V13         N05937 0 0.5Vdc
V_V14         N05945 0 0.5Vdc
V_V15         INPUT 0 -2.3Vdc
R_R5         N05933 N05937  1G TC=0,0 
R_R6         N05941 N05945  1G TC=0,0 

**** RESUMING basic.cir ****
.END

Starting pseudo-transient algorithm.

**** 05/03/17 02:36:19 ****** PSpice Lite (October 2012) ****** ID# 10813 ****

 ** Profile: "SCHEMATIC1-basic"  [ C:\Users\xdsarkar\Desktop\MemristorSimulations\logic gates-pspicefiles\schematic1\basic.sim ] 


 ****     INITIAL TRANSIENT SOLUTION       TEMPERATURE =   27.000 DEG C


******************************************************************************



 NODE   VOLTAGE     NODE   VOLTAGE     NODE   VOLTAGE     NODE   VOLTAGE


( OUT1)    1.0000  (INPUT)   -2.3000  (N00102)   -1.5308 (N00357)     .5000     

(N05933)    1.0000 (N05937)     .5000 (N05941)     .0098 (N05945)     .5000     

(OUTPUT)    -.7616 (X_M1.4)   -1.5384 (X_M1.8)    -.7616 (X_M1.9)   -1.5384     

(X_M2.4)   -1.5308 (X_M2.8)    0.0000 (X_M2.9)   -1.5308 (X_M3.4)    -.7692     

(X_M3.8)    -.7616 (X_M3.9)    -.7692 (X_M1.10)    1.0000                       

(X_M2.10)     .0098                   (X_M3.10)    1.0000                   




    VOLTAGE SOURCE CURRENTS
    NAME         CURRENT

    V_V3         5.000E-10
    V_V13        5.000E-10
    V_V14       -4.902E-10
    V_V15        7.616E-04
    X_M1.Vsense  -7.616E-04
    X_M2.Vsense   0.000E+00
    X_M3.Vsense  -7.616E-04

    TOTAL POWER DISSIPATION   1.75E-03  WATTS



          JOB CONCLUDED

**** 05/03/17 02:36:19 ****** PSpice Lite (October 2012) ****** ID# 10813 ****

 ** Profile: "SCHEMATIC1-basic"  [ C:\Users\xdsarkar\Desktop\MemristorSimulations\logic gates-pspicefiles\schematic1\basic.sim ] 


 ****     JOB STATISTICS SUMMARY


******************************************************************************



  Total job time (using Solver 1)   =       13.41
