
**** 05/03/17 04:32:31 ****** PSpice Lite (October 2012) ****** ID# 10813 ****

 ** Profile: "SCHEMATIC1-Sim1"  [ C:\Users\xdsarkar\Desktop\MemristorSimulations\imply-pspicefiles\schematic1\sim1.sim ] 


 ****     CIRCUIT DESCRIPTION


******************************************************************************




** Creating circuit file "Sim1.cir" 
** WARNING: THIS AUTOMATICALLY GENERATED FILE MAY BE OVERWRITTEN BY SUBSEQUENT SIMULATIONS

*Libraries: 
* Profile Libraries :
* Local Libraries :
.LIB "C:/OrCAD/OrCAD_16.6_Lite/tools/capture/library/pspice/memristor.lib" 
* From [PSPICE NETLIST] section of C:\Users\xdsarkar\AppData\Roaming\SPB_16.6\cdssetup\OrCAD_PSpice/16.6.0/PSpice.ini file:
.lib "nomd.lib" 

*Analysis directives: 
.TRAN  0 100m 0 1u 
.OPTIONS ADVCONV
.PROBE64 V(alias(*)) I(alias(*)) W(alias(*)) D(alias(*)) NOISE(alias(*)) 
.INC "..\SCHEMATIC1.net" 



**** INCLUDING SCHEMATIC1.net ****
* source IMPLY
V_V18         N07656 0 0.5Vdc
X_M4         N07442 VCOND STATEP MEMRISTOR
V_V17         VSET 0 1Vdc
R_R8         STATEQ N07656  1G TC=0,0 
V_V1         N07584 0 0.5Vdc
V_V16         VCOND 0 0.5Vdc
X_M5         N07442 VSET STATEQ MEMRISTOR
R_R2         STATEP N07584  1G TC=0,0 
R_R7         0 N07442  5k TC=0,0 
R_R9         N07442 VSET  0.0001k TC=0,0 
R_R10         VCOND N07442  0.0001k TC=0,0 

**** RESUMING Sim1.cir ****
.END

Starting pseudo-transient algorithm.

**** 05/03/17 04:32:31 ****** PSpice Lite (October 2012) ****** ID# 10813 ****

 ** Profile: "SCHEMATIC1-Sim1"  [ C:\Users\xdsarkar\Desktop\MemristorSimulations\imply-pspicefiles\schematic1\sim1.sim ] 


 ****     INITIAL TRANSIENT SOLUTION       TEMPERATURE =   27.000 DEG C


******************************************************************************



 NODE   VOLTAGE     NODE   VOLTAGE     NODE   VOLTAGE     NODE   VOLTAGE


( VSET)    1.0000  (VCOND)     .5000  (N07442)     .7488 (N07584)     .5000     

(N07656)     .5000 (STATEP) 20.10E-09 (STATEQ)    1.0000 (X_M4.4)     .7488     

(X_M4.8)   24.8760 (X_M4.9)     .7488 (X_M5.4)     .9975 (X_M5.8)    -.2488     

(X_M5.9)     .9975 (X_M4.10) 20.10E-09                   (X_M5.10)    1.0000    




    VOLTAGE SOURCE CURRENTS
    NAME         CURRENT

    V_V18        5.000E-10
    V_V17       -2.513E+00
    V_V1        -5.000E-10
    V_V16        2.512E+00
    X_M4.Vsense   2.488E-02
    X_M5.Vsense  -2.488E-04

    TOTAL POWER DISSIPATION   1.26E+00  WATTS



          JOB CONCLUDED

**** 05/03/17 04:32:31 ****** PSpice Lite (October 2012) ****** ID# 10813 ****

 ** Profile: "SCHEMATIC1-Sim1"  [ C:\Users\xdsarkar\Desktop\MemristorSimulations\imply-pspicefiles\schematic1\sim1.sim ] 


 ****     JOB STATISTICS SUMMARY


******************************************************************************



  Total job time (using Solver 1)   =        9.50
